Sample in Buffer,Sample in Window,TRIGGER,cis_sobel_i/fifo_generator_0_dout[7:0],cis_sobel_i/icb_sobel_0_data_rgb_out[15:0],cis_sobel_i/fifo_generator_0_empty,cis_sobel_i/icb_sobel_0_rd_gray_en,cis_sobel_i/icb_sobel_0_wr_rgb_en
Radix - UNSIGNED,UNSIGNED,UNSIGNED,HEX,HEX,HEX,HEX,HEX
0,0,0,98,ffff,0,1,0
1,1,0,9a,0000,1,1,1
2,2,0,9a,0000,0,1,0
3,3,0,9a,0000,1,1,1
4,4,0,9a,0000,0,1,0
5,5,0,9a,0000,1,1,1
6,6,0,9a,0000,0,1,0
7,7,0,9d,0000,1,1,1
8,8,0,9d,0000,0,1,0
9,9,0,9d,0000,1,1,1
10,10,0,9d,0000,1,1,0
11,11,0,9d,0000,0,1,1
12,12,0,9d,0000,1,1,0
13,13,0,9d,0000,0,1,0
14,14,0,9f,0000,1,1,1
15,15,0,9f,0000,0,1,0
16,16,0,a5,0000,1,1,1
17,17,0,a5,0000,0,1,0
18,18,0,a7,0000,1,1,1
19,19,0,a7,0000,0,1,0
20,20,0,af,0000,1,1,1
21,21,0,af,0000,0,1,0
22,22,0,b2,0000,1,1,1
23,23,0,b2,0000,0,1,0
24,24,0,b5,0000,1,1,1
25,25,0,b5,0000,0,1,0
26,26,0,b8,0000,1,1,1
27,27,0,b8,0000,0,1,0
28,28,0,b9,0000,1,1,1
29,29,0,b9,0000,0,1,0
30,30,0,bd,0000,1,1,1
31,31,0,bd,0000,1,1,0
32,32,0,bd,0000,0,1,1
33,33,0,bd,0000,1,1,0
34,34,0,bd,0000,0,1,0
35,35,0,bd,0000,1,1,1
36,36,0,bd,0000,0,1,0
37,37,0,bd,ffff,1,1,1
38,38,0,bd,ffff,0,1,0
39,39,0,c0,ffff,1,1,1
40,40,0,c0,ffff,0,1,0
41,41,0,c0,0000,1,1,1
42,42,0,c0,0000,0,1,0
43,43,0,c0,ffff,1,1,1
44,44,0,c0,ffff,0,1,0
45,45,0,c0,ffff,1,1,1
46,46,0,c0,ffff,0,1,0
47,47,0,c0,ffff,1,1,1
48,48,0,c0,ffff,0,1,0
49,49,0,c0,ffff,1,1,1
50,50,0,c0,ffff,0,1,0
51,51,0,c0,0000,1,1,1
52,52,0,c0,0000,1,1,0
53,53,0,c0,ffff,0,1,1
54,54,0,c0,ffff,1,1,0
55,55,0,c0,ffff,0,1,0
56,56,0,c0,ffff,1,1,1
57,57,0,c0,ffff,0,1,0
58,58,0,c0,ffff,1,1,1
59,59,0,c0,ffff,0,1,0
60,60,0,c0,ffff,1,1,1
61,61,0,c0,ffff,0,1,0
62,62,0,c0,ffff,1,1,1
63,63,0,c0,ffff,0,1,0
64,64,0,c0,ffff,1,1,1
65,65,0,c0,ffff,0,1,0
66,66,0,c0,ffff,1,1,1
67,67,0,c0,ffff,0,1,0
68,68,0,bd,ffff,1,1,1
69,69,0,bd,ffff,0,1,0
70,70,0,bd,ffff,1,1,1
71,71,0,bd,ffff,0,1,0
72,72,0,c0,ffff,1,1,1
73,73,0,c0,ffff,1,1,0
74,74,0,c0,ffff,0,1,1
75,75,0,c0,ffff,1,1,0
76,76,0,c0,ffff,0,1,0
77,77,0,c0,ffff,1,1,1
78,78,0,c0,ffff,0,1,0
79,79,0,c0,0000,1,1,1
80,80,0,c0,0000,0,1,0
81,81,0,c0,ffff,1,1,1
82,82,0,c0,ffff,0,1,0
83,83,0,c0,ffff,1,1,1
84,84,0,c0,ffff,0,1,0
85,85,0,bd,0000,1,1,1
86,86,0,bd,0000,0,1,0
87,87,0,bd,0000,1,1,1
88,88,0,bd,0000,0,1,0
89,89,0,ba,ffff,1,1,1
90,90,0,ba,ffff,0,1,0
91,91,0,ba,ffff,1,1,1
92,92,0,ba,ffff,0,1,0
93,93,0,bb,ffff,1,1,1
94,94,0,bb,ffff,1,1,0
95,95,0,bb,ffff,0,1,1
96,96,0,ba,ffff,1,1,0
97,97,0,ba,ffff,0,1,0
98,98,0,ba,ffff,1,1,1
99,99,0,ba,ffff,0,1,0
100,100,0,ba,ffff,1,1,1
101,101,0,ba,ffff,0,1,0
102,102,0,b8,ffff,1,1,1
103,103,0,b8,ffff,0,1,0
104,104,0,b8,0000,1,1,1
105,105,0,b8,0000,0,1,0
106,106,0,b5,ffff,1,1,1
107,107,0,b5,ffff,0,1,0
108,108,0,b5,ffff,1,1,1
109,109,0,b5,ffff,0,1,0
110,110,0,b5,ffff,1,1,1
111,111,0,b5,ffff,0,1,0
112,112,0,b5,ffff,1,1,1
113,113,0,b5,ffff,0,1,0
114,114,0,b5,ffff,1,1,1
115,115,0,b5,ffff,1,1,0
116,116,0,b5,ffff,0,1,1
117,117,0,b2,ffff,1,1,0
118,118,0,b2,ffff,0,1,0
119,119,0,b2,ffff,1,1,1
120,120,0,b2,ffff,0,1,0
121,121,0,b0,ffff,1,1,1
122,122,0,b0,ffff,0,1,0
123,123,0,ad,ffff,1,1,1
124,124,0,ad,ffff,0,1,0
125,125,0,aa,ffff,1,1,1
126,126,0,aa,ffff,0,1,0
127,127,0,a8,ffff,1,1,1
128,128,0,a8,ffff,0,1,0
129,129,0,a5,ffff,1,1,1
130,130,0,a5,ffff,0,1,0
131,131,0,a5,ffff,1,1,1
132,132,0,a5,ffff,0,1,0
133,133,0,a2,ffff,1,1,1
134,134,0,a2,ffff,0,1,0
135,135,0,a2,ffff,1,1,1
136,136,0,a2,ffff,1,1,0
137,137,0,a2,ffff,0,1,1
138,138,0,a0,ffff,1,1,0
139,139,0,a0,ffff,0,1,0
140,140,0,a0,ffff,1,1,1
141,141,0,a0,ffff,0,1,0
142,142,0,a0,ffff,1,1,1
143,143,0,a0,ffff,0,1,0
144,144,0,a0,ffff,1,1,1
145,145,0,a0,ffff,0,1,0
146,146,0,a0,ffff,1,1,1
147,147,0,a0,ffff,0,1,0
148,148,0,a0,ffff,1,1,1
149,149,0,a0,ffff,0,1,0
150,150,0,a0,ffff,1,1,1
151,151,0,a0,ffff,0,1,0
152,152,0,a0,ffff,1,1,1
153,153,0,a0,ffff,0,1,0
154,154,0,a0,ffff,1,1,1
155,155,0,a0,ffff,0,1,0
156,156,0,a2,ffff,1,1,1
157,157,0,a2,ffff,1,1,0
158,158,0,a2,ffff,0,1,1
159,159,0,a2,ffff,1,1,0
160,160,0,a2,ffff,0,1,0
161,161,0,a3,ffff,1,1,1
162,162,0,a3,ffff,0,1,0
163,163,0,a5,ffff,1,1,1
164,164,0,a5,ffff,0,1,0
165,165,0,a8,ffff,1,1,1
166,166,0,a8,ffff,0,1,0
167,167,0,aa,0000,1,1,1
168,168,0,aa,0000,0,1,0
169,169,0,ab,ffff,1,1,1
170,170,0,ab,ffff,0,1,0
171,171,0,ad,ffff,1,1,1
172,172,0,ad,ffff,0,1,0
173,173,0,b3,0000,1,1,1
174,174,0,b3,0000,0,1,0
175,175,0,b5,0000,1,1,1
176,176,0,b5,0000,0,1,0
177,177,0,b8,ffff,1,1,1
178,178,0,b8,ffff,1,1,0
179,179,0,b8,ffff,0,1,1
180,180,0,b8,ffff,1,1,0
181,181,0,b8,ffff,0,1,0
182,182,0,b8,ffff,1,1,1
183,183,0,b8,ffff,0,1,0
184,184,0,bb,ffff,1,1,1
185,185,0,bb,ffff,0,1,0
186,186,0,ba,0000,1,1,1
187,187,0,ba,0000,0,1,0
188,188,0,bd,0000,1,1,1
189,189,0,bd,0000,0,1,0
190,190,0,be,ffff,1,1,1
191,191,0,be,ffff,0,1,0
192,192,0,c0,ffff,1,1,1
193,193,0,c0,ffff,0,1,0
194,194,0,c0,ffff,1,1,1
195,195,0,c0,ffff,0,1,0
196,196,0,c0,0000,1,1,1
197,197,0,c0,0000,0,1,0
198,198,0,c0,0000,1,1,1
199,199,0,c0,0000,1,1,0
200,200,0,c0,ffff,0,1,1
201,201,0,c0,ffff,1,1,0
202,202,0,c0,ffff,0,1,0
203,203,0,c0,ffff,1,1,1
204,204,0,c0,ffff,0,1,0
205,205,0,c0,ffff,1,1,1
206,206,0,c0,ffff,0,1,0
207,207,0,c0,ffff,1,1,1
208,208,0,c0,ffff,0,1,0
209,209,0,c0,ffff,1,1,1
210,210,0,c0,ffff,0,1,0
211,211,0,bd,ffff,1,1,1
212,212,0,bd,ffff,0,1,0
213,213,0,bd,ffff,1,1,1
214,214,0,bd,ffff,0,1,0
215,215,0,c0,ffff,1,1,1
216,216,0,c0,ffff,0,1,0
217,217,0,c0,ffff,1,1,1
218,218,0,c0,ffff,0,1,0
219,219,0,c0,ffff,1,1,1
220,220,0,c0,ffff,1,1,0
221,221,0,c0,ffff,0,1,1
222,222,0,c2,ffff,1,1,0
223,223,0,c2,ffff,0,1,0
224,224,0,c2,ffff,1,1,1
225,225,0,c2,ffff,0,1,0
226,226,0,c2,ffff,1,1,1
227,227,0,c2,ffff,0,1,0
228,228,0,c0,ffff,1,1,1
229,229,0,c0,ffff,0,1,0
230,230,0,c2,ffff,1,1,1
231,231,0,c2,ffff,0,1,0
232,232,0,c2,0000,1,1,1
233,233,0,c2,0000,0,1,0
234,234,0,c2,ffff,1,1,1
235,235,0,c2,ffff,0,1,0
236,236,0,c2,0000,1,1,1
237,237,0,c2,0000,0,1,0
238,238,0,c2,ffff,1,1,1
239,239,0,c2,ffff,0,1,0
240,240,0,c0,0000,1,1,1
241,241,0,c0,0000,1,1,0
242,242,0,c0,0000,0,1,1
243,243,0,c0,0000,1,1,0
244,244,0,c0,0000,0,1,0
245,245,0,c2,0000,1,1,1
246,246,0,c2,0000,0,1,0
247,247,0,c2,0000,1,1,1
248,248,0,c2,0000,0,1,0
249,249,0,c0,0000,1,1,1
250,250,0,c0,0000,0,1,0
251,251,0,c2,0000,1,1,1
252,252,0,c2,0000,0,1,0
253,253,0,c2,0000,1,1,1
254,254,0,c2,0000,0,1,0
255,255,0,c2,0000,1,1,1
256,256,0,c2,0000,0,1,0
257,257,0,c2,0000,1,1,1
258,258,0,c2,0000,0,1,0
259,259,0,c2,0000,1,1,1
260,260,0,c2,0000,0,1,0
261,261,0,c0,0000,1,1,1
262,262,0,c0,0000,1,1,0
263,263,0,c0,0000,0,1,1
264,264,0,c0,0000,1,1,0
265,265,0,c0,0000,0,1,0
266,266,0,c0,0000,1,1,1
267,267,0,c0,0000,0,1,0
268,268,0,c0,0000,1,1,1
269,269,0,c0,0000,0,1,0
270,270,0,c0,0000,1,1,1
271,271,0,c0,0000,0,1,0
272,272,0,c2,0000,1,1,1
273,273,0,c2,0000,0,1,0
274,274,0,c0,0000,1,1,1
275,275,0,c0,0000,0,1,0
276,276,0,c0,0000,1,1,1
277,277,0,c0,0000,0,1,0
278,278,0,c0,0000,1,1,1
279,279,0,c0,0000,0,1,0
280,280,0,c0,0000,1,1,1
281,281,0,c0,0000,0,1,0
282,282,0,c0,0000,1,1,1
283,283,0,c0,0000,1,1,0
284,284,0,c0,ffff,0,1,1
285,285,0,c0,ffff,1,1,0
286,286,0,c0,ffff,0,1,0
287,287,0,c2,ffff,1,1,1
288,288,0,c2,ffff,0,1,0
289,289,0,c2,0000,1,1,1
290,290,0,c2,0000,0,1,0
291,291,0,c0,0000,1,1,1
292,292,0,c0,0000,0,1,0
293,293,0,c0,0000,1,1,1
294,294,0,c0,0000,0,1,0
295,295,0,c0,0000,1,1,1
296,296,0,c0,0000,0,1,0
297,297,0,c0,0000,1,1,1
298,298,0,c0,0000,0,1,0
299,299,0,c0,0000,1,1,1
300,300,0,c0,0000,0,1,0
301,301,0,c0,0000,1,1,1
302,302,0,c0,0000,0,1,0
303,303,0,c0,ffff,1,1,1
304,304,0,c0,ffff,1,1,0
305,305,0,c0,ffff,0,1,1
306,306,0,c0,ffff,1,1,0
307,307,0,c0,ffff,0,1,0
308,308,0,c0,ffff,1,1,1
309,309,0,c0,ffff,0,1,0
310,310,0,c0,ffff,1,1,1
311,311,0,c0,ffff,0,1,0
312,312,0,c0,ffff,1,1,1
313,313,0,c0,ffff,0,1,0
314,314,0,c0,ffff,1,1,1
315,315,0,c0,ffff,0,1,0
316,316,0,c0,ffff,1,1,1
317,317,0,c0,ffff,0,1,0
318,318,0,c0,ffff,1,1,1
319,319,0,c0,ffff,0,1,0
320,320,0,bd,ffff,1,1,1
321,321,0,bd,ffff,0,1,0
322,322,0,bd,ffff,1,1,1
323,323,0,bd,ffff,0,1,0
324,324,0,c0,ffff,1,1,1
325,325,0,c0,ffff,1,1,0
326,326,0,c0,ffff,0,1,1
327,327,0,c0,ffff,1,1,0
328,328,0,c0,ffff,0,1,0
329,329,0,be,ffff,1,1,1
330,330,0,be,ffff,0,1,0
331,331,0,be,ffff,1,1,1
332,332,0,be,ffff,0,1,0
333,333,0,c0,ffff,1,1,1
334,334,0,c0,ffff,0,1,0
335,335,0,c0,ffff,1,1,1
336,336,0,c0,ffff,0,1,0
337,337,0,c0,ffff,1,1,1
338,338,0,c0,ffff,0,1,0
339,339,0,c0,ffff,1,1,1
340,340,0,c0,ffff,0,1,0
341,341,0,c0,ffff,1,1,1
342,342,0,c0,ffff,0,1,0
343,343,0,c0,ffff,1,1,1
344,344,0,c0,ffff,0,1,0
345,345,0,c0,ffff,1,1,1
346,346,0,c0,ffff,1,1,0
347,347,0,c0,ffff,0,1,1
348,348,0,c0,ffff,1,1,0
349,349,0,c0,ffff,0,1,0
350,350,0,bd,ffff,1,1,1
351,351,0,bd,ffff,0,1,0
352,352,0,bd,ffff,1,1,1
353,353,0,bd,ffff,0,1,0
354,354,0,c0,ffff,1,1,1
355,355,0,c0,ffff,0,1,0
356,356,0,c0,ffff,1,1,1
357,357,0,c0,ffff,0,1,0
358,358,0,c0,ffff,1,1,1
359,359,0,c0,ffff,0,1,0
360,360,0,c0,ffff,1,1,1
361,361,0,c0,ffff,0,1,0
362,362,0,be,ffff,1,1,1
363,363,0,be,ffff,0,1,0
364,364,0,be,0000,1,1,1
365,365,0,be,0000,0,1,0
366,366,0,c0,0000,1,1,1
367,367,0,c0,0000,1,1,0
368,368,0,c0,0000,0,1,1
369,369,0,c0,0000,1,1,0
370,370,0,c0,0000,0,1,0
371,371,0,c0,0000,1,1,1
372,372,0,c0,0000,0,1,0
373,373,0,c0,0000,1,1,1
374,374,0,c0,0000,0,1,0
375,375,0,bd,0000,1,1,1
376,376,0,bd,0000,0,1,0
377,377,0,bd,0000,1,1,1
378,378,0,bd,0000,0,1,0
379,379,0,bb,ffff,1,1,1
380,380,0,bb,ffff,0,1,0
381,381,0,c0,ffff,1,1,1
382,382,0,c0,ffff,0,1,0
383,383,0,be,ffff,1,1,1
384,384,0,be,ffff,0,1,0
385,385,0,be,ffff,1,1,1
386,386,0,be,ffff,0,1,0
387,387,0,bd,ffff,1,1,1
388,388,0,bd,ffff,1,1,0
389,389,0,bd,ffff,0,1,1
390,390,0,bd,ffff,1,1,0
391,391,0,bd,ffff,0,1,0
392,392,0,bd,ffff,1,1,1
393,393,0,bd,ffff,0,1,0
394,394,0,bd,ffff,1,1,1
395,395,0,bd,ffff,0,1,0
396,396,0,bd,ffff,1,1,1
397,397,0,bd,ffff,0,1,0
398,398,0,ba,ffff,1,1,1
399,399,0,ba,ffff,0,1,0
400,400,0,bd,ffff,1,1,1
401,401,0,bd,ffff,0,1,0
402,402,0,bd,ffff,1,1,1
403,403,0,bd,ffff,0,1,0
404,404,0,bd,ffff,1,1,1
405,405,0,bd,ffff,0,1,0
406,406,0,bd,ffff,1,1,1
407,407,0,bd,ffff,0,1,0
408,408,0,bb,ffff,1,1,1
409,409,0,bb,ffff,1,1,0
410,410,0,bb,ffff,0,1,1
411,411,0,bb,ffff,1,1,0
412,412,0,bb,ffff,0,1,0
413,413,0,bd,ffff,1,1,1
414,414,0,bd,ffff,0,1,0
415,415,0,bd,ffff,1,1,1
416,416,0,bd,ffff,0,1,0
417,417,0,ba,ffff,1,1,1
418,418,0,ba,ffff,0,1,0
419,419,0,ba,ffff,1,1,1
420,420,0,ba,ffff,0,1,0
421,421,0,bb,ffff,1,1,1
422,422,0,bb,ffff,0,1,0
423,423,0,bb,ffff,1,1,1
424,424,0,bb,ffff,0,1,0
425,425,0,ba,ffff,1,1,1
426,426,0,ba,ffff,0,1,0
427,427,0,ba,ffff,1,1,1
428,428,0,ba,ffff,0,1,0
429,429,0,ba,ffff,1,1,1
430,430,0,ba,ffff,1,1,0
431,431,0,ba,ffff,0,1,1
432,432,0,ba,ffff,1,1,0
433,433,0,ba,ffff,0,1,0
434,434,0,ba,ffff,1,1,1
435,435,0,ba,ffff,0,1,0
436,436,0,ba,ffff,1,1,1
437,437,0,ba,ffff,0,1,0
438,438,0,ba,ffff,1,1,1
439,439,0,ba,ffff,0,1,0
440,440,0,ba,ffff,1,1,1
441,441,0,ba,ffff,0,1,0
442,442,0,ba,ffff,1,1,1
443,443,0,ba,ffff,0,1,0
444,444,0,ba,ffff,1,1,1
445,445,0,ba,ffff,0,1,0
446,446,0,ba,ffff,1,1,1
447,447,0,ba,ffff,0,1,0
448,448,0,ba,ffff,1,1,1
449,449,0,ba,ffff,0,1,0
450,450,0,ba,ffff,1,1,1
451,451,0,ba,ffff,1,1,0
452,452,0,ba,ffff,0,1,1
453,453,0,b8,ffff,1,1,0
454,454,0,b8,ffff,0,1,0
455,455,0,ba,ffff,1,1,1
456,456,0,ba,ffff,0,1,0
457,457,0,ba,ffff,1,1,1
458,458,0,ba,ffff,0,1,0
459,459,0,ba,ffff,1,1,1
460,460,0,ba,ffff,0,1,0
461,461,0,ba,ffff,1,1,1
462,462,0,ba,ffff,0,1,0
463,463,0,ba,ffff,1,1,1
464,464,0,ba,ffff,0,1,0
465,465,0,ba,ffff,1,1,1
466,466,0,ba,ffff,0,1,0
467,467,0,b8,ffff,1,1,1
468,468,0,b8,ffff,0,1,0
469,469,0,b8,ffff,1,1,1
470,470,0,b8,ffff,0,1,0
471,471,0,b8,ffff,1,1,1
472,472,0,b8,ffff,1,1,0
473,473,0,b8,ffff,0,1,1
474,474,0,b8,ffff,1,1,0
475,475,0,b8,ffff,0,1,0
476,476,0,b8,ffff,1,1,1
477,477,0,b8,ffff,0,1,0
478,478,0,b8,ffff,1,1,1
479,479,0,b8,ffff,0,1,0
480,480,0,b8,ffff,1,1,1
481,481,0,b8,ffff,0,1,0
482,482,0,b8,ffff,1,1,1
483,483,0,b8,ffff,0,1,0
484,484,0,b8,ffff,1,1,1
485,485,0,b8,ffff,0,1,0
486,486,0,b8,ffff,1,1,1
487,487,0,b8,ffff,0,1,0
488,488,0,b8,ffff,1,1,1
489,489,0,b8,ffff,0,1,0
490,490,0,b8,ffff,1,1,1
491,491,0,b8,ffff,0,1,0
492,492,0,b8,ffff,1,1,1
493,493,0,b8,ffff,1,1,0
494,494,0,b8,ffff,0,1,1
495,495,0,b8,ffff,1,1,0
496,496,0,b8,ffff,0,1,0
497,497,0,b7,ffff,1,1,1
498,498,0,b7,ffff,0,1,0
499,499,0,b7,ffff,1,1,1
500,500,0,b7,ffff,0,1,0
501,501,0,b8,ffff,1,1,1
502,502,0,b8,ffff,0,1,0
503,503,0,b8,ffff,1,1,1
504,504,0,b8,ffff,0,1,0
505,505,0,b8,ffff,1,1,1
506,506,0,b8,ffff,0,1,0
507,507,0,b8,ffff,1,1,1
508,508,0,b8,ffff,0,1,0
509,509,0,b8,ffff,1,1,1
510,510,0,b8,ffff,0,1,0
511,511,0,b8,ffff,1,1,1
512,512,1,b8,ffff,0,1,0
513,513,0,b8,ffff,1,1,1
514,514,0,b8,ffff,1,1,0
515,515,0,b8,ffff,0,1,1
516,516,0,b7,ffff,1,1,0
517,517,0,b7,ffff,0,1,0
518,518,0,b8,ffff,1,1,1
519,519,0,b8,ffff,0,1,0
520,520,0,b8,ffff,1,1,1
521,521,0,b8,ffff,0,1,0
522,522,0,b6,ffff,1,1,1
523,523,0,b6,ffff,0,1,0
524,524,0,b8,ffff,1,1,1
525,525,0,b8,ffff,0,1,0
526,526,0,b6,ffff,1,1,1
527,527,0,b6,ffff,0,1,0
528,528,0,b6,ffff,1,1,1
529,529,0,b6,ffff,0,1,0
530,530,0,b8,ffff,1,1,1
531,531,0,b8,ffff,0,1,0
532,532,0,b5,ffff,1,1,1
533,533,0,b5,ffff,0,1,0
534,534,0,b8,ffff,1,1,1
535,535,0,b8,ffff,1,1,0
536,536,0,b8,ffff,0,1,1
537,537,0,b8,ffff,1,1,0
538,538,0,b8,ffff,0,1,0
539,539,0,b3,ffff,1,1,1
540,540,0,b3,ffff,0,1,0
541,541,0,b3,ffff,1,1,1
542,542,0,b3,ffff,0,1,0
543,543,0,b7,ffff,1,1,1
544,544,0,b7,ffff,0,1,0
545,545,0,b5,ffff,1,1,1
546,546,0,b5,ffff,0,1,0
547,547,0,b5,ffff,1,1,1
548,548,0,b5,ffff,0,1,0
549,549,0,b7,ffff,1,1,1
550,550,0,b7,ffff,0,1,0
551,551,0,b3,ffff,1,1,1
552,552,0,b3,ffff,0,1,0
553,553,0,b3,ffff,1,1,1
554,554,0,b3,ffff,0,1,0
555,555,0,b8,ffff,1,1,1
556,556,0,b8,ffff,1,1,0
557,557,0,b8,ffff,0,1,1
558,558,0,b8,ffff,1,1,0
559,559,0,b8,ffff,0,1,0
560,560,0,b6,ffff,1,1,1
561,561,0,b6,ffff,0,1,0
562,562,0,b6,ffff,1,1,1
563,563,0,b6,ffff,0,1,0
564,564,0,b3,ffff,1,1,1
565,565,0,b3,ffff,0,1,0
566,566,0,b3,ffff,1,1,1
567,567,0,b3,ffff,0,1,0
568,568,0,b8,ffff,1,1,1
569,569,0,b8,ffff,0,1,0
570,570,0,b8,ffff,1,1,1
571,571,0,b8,ffff,0,1,0
572,572,0,b7,ffff,1,1,1
573,573,0,b7,ffff,0,1,0
574,574,0,b5,ffff,1,1,1
575,575,0,b5,ffff,0,1,0
576,576,0,b7,ffff,1,1,1
577,577,0,b7,ffff,1,1,0
578,578,0,b7,ffff,0,1,1
579,579,0,b5,ffff,1,1,0
580,580,0,b5,ffff,0,1,0
581,581,0,b8,ffff,1,1,1
582,582,0,b8,ffff,0,1,0
583,583,0,b8,ffff,1,1,1
584,584,0,b8,ffff,0,1,0
585,585,0,b5,ffff,1,1,1
586,586,0,b5,ffff,0,1,0
587,587,0,b5,ffff,1,1,1
588,588,0,b5,ffff,0,1,0
589,589,0,b2,ffff,1,1,1
590,590,0,b2,ffff,0,1,0
591,591,0,b2,ffff,1,1,1
592,592,0,b2,ffff,0,1,0
593,593,0,b5,ffff,1,1,1
594,594,0,b5,ffff,0,1,0
595,595,0,b5,ffff,1,1,1
596,596,0,b5,ffff,0,1,0
597,597,0,b5,ffff,1,1,1
598,598,0,b5,ffff,1,1,0
599,599,0,b5,ffff,0,1,1
600,600,0,b5,ffff,1,1,0
601,601,0,b5,ffff,0,1,0
602,602,0,b6,ffff,1,1,1
603,603,0,b6,ffff,0,1,0
604,604,0,b6,ffff,1,1,1
605,605,0,b6,ffff,0,1,0
606,606,0,b5,ffff,1,1,1
607,607,0,b5,ffff,0,1,0
608,608,0,b5,ffff,1,1,1
609,609,0,b5,ffff,0,1,0
610,610,0,b5,ffff,1,1,1
611,611,0,b5,ffff,0,1,0
612,612,0,b5,ffff,1,1,1
613,613,0,b5,ffff,0,1,0
614,614,0,b6,ffff,1,1,1
615,615,0,b6,ffff,0,1,0
616,616,0,b6,ffff,1,1,1
617,617,0,b6,ffff,0,1,0
618,618,0,b5,ffff,1,1,1
619,619,0,b5,ffff,1,1,0
620,620,0,b5,ffff,0,1,1
621,621,0,b8,ffff,1,1,0
622,622,0,b8,ffff,0,1,0
623,623,0,b5,ffff,1,1,1
624,624,0,b5,ffff,0,1,0
625,625,0,b5,ffff,1,1,1
626,626,0,b5,ffff,0,1,0
627,627,0,b8,ffff,1,1,1
628,628,0,b8,ffff,0,1,0
629,629,0,b8,ffff,1,1,1
630,630,0,b8,ffff,0,1,0
631,631,0,b5,ffff,1,1,1
632,632,0,b5,ffff,0,1,0
633,633,0,b5,ffff,1,1,1
634,634,0,b5,ffff,0,1,0
635,635,0,b5,ffff,1,1,1
636,636,0,b5,ffff,0,1,0
637,637,0,b5,ffff,1,1,1
638,638,0,b5,ffff,0,1,0
639,639,0,b7,ffff,1,1,1
640,640,0,b7,ffff,1,1,0
641,641,0,b7,ffff,0,1,1
642,642,0,b7,ffff,1,1,0
643,643,0,b7,ffff,0,1,0
644,644,0,b7,ffff,1,1,1
645,645,0,b7,ffff,0,1,0
646,646,0,b7,0000,1,1,1
647,647,0,b7,0000,0,1,0
648,648,0,b7,ffff,1,1,1
649,649,0,b7,ffff,0,1,0
650,650,0,b7,ffff,1,1,1
651,651,0,b7,ffff,0,1,0
652,652,0,b6,ffff,1,1,1
653,653,0,b6,ffff,0,1,0
654,654,0,b6,ffff,1,1,1
655,655,0,b6,ffff,0,1,0
656,656,0,b5,ffff,1,1,1
657,657,0,b5,ffff,0,1,0
658,658,0,b2,0000,1,1,1
659,659,0,b2,0000,0,1,0
660,660,0,b5,0000,1,1,1
661,661,0,b5,0000,1,1,0
662,662,0,b5,0000,0,1,1
663,663,0,b5,0000,1,1,0
664,664,0,b5,0000,0,1,0
665,665,0,b2,0000,1,1,1
666,666,0,b2,0000,0,1,0
667,667,0,b8,0000,1,1,1
668,668,0,b8,0000,0,1,0
669,669,0,b5,ffff,1,1,1
670,670,0,b5,ffff,0,1,0
671,671,0,b5,0000,1,1,1
672,672,0,b5,0000,0,1,0
673,673,0,b5,0000,1,1,1
674,674,0,b5,0000,0,1,0
675,675,0,b7,0000,1,1,1
676,676,0,b7,0000,0,1,0
677,677,0,b5,0000,1,1,1
678,678,0,b5,0000,0,1,0
679,679,0,b8,0000,1,1,1
680,680,0,b8,0000,0,1,0
681,681,0,b5,ffff,1,1,1
682,682,0,b5,ffff,1,1,0
683,683,0,b5,ffff,0,1,1
684,684,0,b5,ffff,1,1,0
685,685,0,b5,ffff,0,1,0
686,686,0,b6,ffff,1,1,1
687,687,0,b6,ffff,0,1,0
688,688,0,b6,0000,1,1,1
689,689,0,b6,0000,0,1,0
690,690,0,b7,0000,1,1,1
691,691,0,b7,0000,0,1,0
692,692,0,b7,ffff,1,1,1
693,693,0,b7,ffff,0,1,0
694,694,0,b5,ffff,1,1,1
695,695,0,b5,ffff,0,1,0
696,696,0,b5,0000,1,1,1
697,697,0,b5,0000,0,1,0
698,698,0,b2,ffff,1,1,1
699,699,0,b2,ffff,0,1,0
700,700,0,b2,ffff,1,1,1
701,701,0,b2,ffff,0,1,0
702,702,0,b1,ffff,1,1,1
703,703,0,b1,ffff,1,1,0
704,704,0,b1,ffff,0,1,1
705,705,0,b1,ffff,1,1,0
706,706,0,b1,ffff,0,1,0
707,707,0,b0,ffff,1,1,1
708,708,0,b0,ffff,0,1,0
709,709,0,b0,ffff,1,1,1
710,710,0,b0,ffff,0,1,0
711,711,0,b0,ffff,1,1,1
712,712,0,b0,ffff,0,1,0
713,713,0,b0,ffff,1,1,1
714,714,0,b0,ffff,0,1,0
715,715,0,ae,ffff,1,1,1
716,716,0,ae,ffff,0,1,0
717,717,0,ae,0000,1,1,1
718,718,0,ae,0000,0,1,0
719,719,0,ab,0000,1,1,1
720,720,0,ab,0000,0,1,0
721,721,0,a9,0000,1,1,1
722,722,0,a9,0000,0,1,0
723,723,0,ab,0000,1,1,1
724,724,0,ab,0000,1,1,0
725,725,0,ab,ffff,0,1,1
726,726,0,aa,ffff,1,1,0
727,727,0,aa,ffff,0,1,0
728,728,0,a5,ffff,1,1,1
729,729,0,a5,ffff,0,1,0
730,730,0,a5,ffff,1,1,1
731,731,0,a5,ffff,0,1,0
732,732,0,a3,ffff,1,1,1
733,733,0,a3,ffff,0,1,0
734,734,0,a2,ffff,1,1,1
735,735,0,a2,ffff,0,1,0
736,736,0,9c,ffff,1,1,1
737,737,0,9c,ffff,0,1,0
738,738,0,99,ffff,1,1,1
739,739,0,99,ffff,0,1,0
740,740,0,95,ffff,1,1,1
741,741,0,95,ffff,0,1,0
742,742,0,90,ffff,1,1,1
743,743,0,90,ffff,0,1,0
744,744,0,8d,ffff,1,1,1
745,745,0,8d,ffff,1,1,0
746,746,0,8d,ffff,0,1,1
747,747,0,8a,ffff,1,1,0
748,748,0,8a,ffff,0,1,0
749,749,0,88,ffff,1,1,1
750,750,0,88,ffff,0,1,0
751,751,0,83,ffff,1,1,1
752,752,0,83,ffff,0,1,0
753,753,0,80,ffff,1,1,1
754,754,0,80,ffff,0,1,0
755,755,0,7e,ffff,1,1,1
756,756,0,7e,ffff,0,1,0
757,757,0,7d,ffff,1,1,1
758,758,0,7d,ffff,0,1,0
759,759,0,7a,ffff,1,1,1
760,760,0,7a,ffff,0,1,0
761,761,0,76,ffff,1,1,1
762,762,0,76,ffff,0,1,0
763,763,0,72,ffff,1,1,1
764,764,0,72,ffff,0,1,0
765,765,0,6e,ffff,1,1,1
766,766,0,6e,ffff,1,1,0
767,767,0,6e,ffff,0,1,1
768,768,0,6e,ffff,1,1,0
769,769,0,6e,ffff,0,1,0
770,770,0,6b,ffff,1,1,1
771,771,0,6b,ffff,0,1,0
772,772,0,65,ffff,1,1,1
773,773,0,65,ffff,0,1,0
774,774,0,61,ffff,1,1,1
775,775,0,61,ffff,0,1,0
776,776,0,5d,0000,1,1,1
777,777,0,5d,0000,0,1,0
778,778,0,5a,0000,1,1,1
779,779,0,5a,0000,0,1,0
780,780,0,5a,0000,1,1,1
781,781,0,5a,0000,0,1,0
782,782,0,55,ffff,1,1,1
783,783,0,55,ffff,0,1,0
784,784,0,55,ffff,1,1,1
785,785,0,55,ffff,0,1,0
786,786,0,55,ffff,1,1,1
787,787,0,55,ffff,1,1,0
788,788,0,55,ffff,0,1,1
789,789,0,55,ffff,1,1,0
790,790,0,55,ffff,0,1,0
791,791,0,53,0000,1,1,1
792,792,0,53,0000,0,1,0
793,793,0,51,0000,1,1,1
794,794,0,51,0000,0,1,0
795,795,0,59,ffff,1,1,1
796,796,0,59,ffff,0,1,0
797,797,0,5e,ffff,1,1,1
798,798,0,5e,ffff,0,1,0
799,799,0,64,ffff,1,1,1
800,800,0,64,ffff,0,1,0
801,801,0,6b,ffff,1,1,1
802,802,0,6b,ffff,0,1,0
803,803,0,6e,ffff,1,1,1
804,804,0,6e,ffff,0,1,0
805,805,0,73,ffff,1,1,1
806,806,0,73,ffff,0,1,0
807,807,0,76,ffff,1,1,1
808,808,0,76,ffff,1,1,0
809,809,0,76,ffff,0,1,1
810,810,0,74,ffff,1,1,0
811,811,0,74,ffff,0,1,0
812,812,0,6c,0000,1,1,1
813,813,0,6c,0000,0,1,0
814,814,0,66,0000,1,1,1
815,815,0,66,0000,0,1,0
816,816,0,61,ffff,1,1,1
817,817,0,61,ffff,0,1,0
818,818,0,5b,ffff,1,1,1
819,819,0,5b,ffff,0,1,0
820,820,0,51,ffff,1,1,1
821,821,0,51,ffff,0,1,0
822,822,0,4e,ffff,1,1,1
823,823,0,4e,ffff,0,1,0
824,824,0,46,ffff,1,1,1
825,825,0,46,ffff,0,1,0
826,826,0,40,ffff,1,1,1
827,827,0,40,ffff,0,1,0
828,828,0,35,ffff,1,1,1
829,829,0,35,ffff,1,1,0
